# AXI4-Lite Interface
## Introduction to AXI4-Lite
Advanced eXtensible Interface 4 (AXI4) is a family of buses defined as part of the fourth generation of the ARM Advanced Microcontroler Bus Architectrue (AMBA) standard. AXI was first introduced with the third generation of AMBA, as AXI3, in 1996.

**The AMBA specification defines 3 AXI4 protocols:**

**AXI4:** A high performance memory mapped data and address interface. Capable of Burst access to memory mapped devices.

**AXI4-Lite:** A subset of AXI, lacking burst access capability. Has a simpler interface than the full AXI4 interface.

**AXI4-Stream:** A fast unidirectional protocol for transfering data from master to slave.

**Use in Xilinx-Based designs**

Xilinx Vivado helps in the creation of custom IP with AXI4 interfaces. These can be connected to the Zynq’s Proccessing System or to other devices. This Document will cover the operation of the AXI4-Lite interface, which is convenient for implementing memory mapped registers.

**AXI4-Lite Interface Signals**

The AXI4-Lite interface consists of five channels: Read Address, Read Data, Write Address, Write Data, and Write Response. An AXI4 read transaction using the Read Address and Data channels is shown in figure 1. Similarly an AXI4 write transaction using the Write Address, Data, and Response channels is shown in figure 2. Note that these figures depict burst transfers, which AXI4-Lite is incapable of.
<img src="https://github.com/arhamhashmi01/Axi4-lite/blob/main/block-diagram.png" alt="block diagram of axi4-lite transaction">

### Clock and Reset
Any AXI component has two global signals: the clock ACLK and an active-low asynchronous reset ARESETN. All AXI4 signals are sampled on the rising edge of the clock and all signal changes must occur aftert the rising edge.

### Handshake Process
All five transaction channels use the same VALID/READY handshake process to transfer address, data, and control information. This two-way flow control machanism means both the master and slave can control the rate at which the information moves between master and slave. The information source generates the VALID signal to indicate when the address, data or control information is available. The information destination generates the READY signal to indicate that it can accept the information. The handshake completes if both VALID and READY signals in a channel are asserted during a rising clock edge.

## AXI4-Lite Read Transaction
Below, the sequence for an AXI4-Lite read is shown:

A description of the events in figure 3 follows:

The Master puts an address on the Read Address channel as well as asserting ARVALID,indicating the address is valid, and RREADY, indicating the master is ready to receive data from the slave.
The Slave asserts ARREADY, indicating that it is ready to receive the address on the bus.
Since both ARVALID and ARREADY are asserted, on the next rising clock edge the handshake occurs, after this the master and slave deassert ARVALID and the ARREADY, respectively. (At this point, the slave has received the requested address).
The Slave puts the requested data on the Read Data channel and asserts RVALID, indicating the data in the channel is valid. The slave can also put a response on RRESP, though this does not occur here.
Since both RREADY and RVALID are asserted, the next rising clock edge completes the transaction. RREADY and RVALID can now be deasserted.

## AXI4-Lite Write Transaction
Below, the sequence for an AXI4-Lite write is shown:

A description of the events in figure 4 follows:

The Master puts an address on the Write Address channel and data on the Write data channel. At the same time it asserts AWVALID and WVALID indicating the address and data on the respective channels is valid. BREADY is also asserted by the Master, indicating it is ready to receive a response.
The Slave asserts AWREADY and WREADY on the Write Address and Write Data channels, respectively.
Since Valid and Ready signals are present on both the Write Address and Write Data channels, the handshakes on those channels occur and the associated Valid and Ready signals can be deasserted. (After both handshakes occur, the slave has the write address and data)
The Slave asserts BVALID, indicating there is a valid reponse on the Write response channel. (in this case the response is 2’b00, that being ‘OKAY’).
The next rising clock edge completes the transaction, with both the Ready and Valid signals on the write response channel high.

### RTL-View Of AXI4_Lite
<img src="https://github.com/arhamhashmi01/Axi4-lite/blob/main/rtl_view.jpg" alt="axi4-lite rtl">

### GTKWAVE
**Simulation using Vivado**
<img src="https://github.com/arhamhashmi01/Axi4-lite/blob/main/gtkwave.png" alt="axi4-lite gtkwave">

## Getting Started

To begin exploring the AXI4-Lite interface protocol:

  **1)** Clone this repository to your local machine:

     git clone https://github.com/arhamhashmi01/Axi4-lite.git

  **2)** Navigate to the project directory:

     cd Axi4-lite

  **3)** **For Verilaor:**
      Run make -> then 
      make wave

  **4)** **For Vivado:** You can directly get access by the folder by opning it on vivado 

  **4)** Refer to the documentation provided in the repository to build, simulate, or test the processor implementation.

  **5)** Experiment with the design, explore optimizations, or integrate additional features to further enhance the processor's capabilities.

## Contribution
Contributions to this project are highly encouraged and appreciated! Whether it's bug fixes, feature enhancements, or optimizations, your contributions can help improve the overall quality and functionality of the AXI4-Lite interface protocol.




##
**DATE: 5th February, 2026**


**PROJECT: UVM-based Verification of an AXI4(-Lite) Interface with Assertions, Coverage, and Error Injection**

My Reference Paper:
_H. Sangani and U. Mehta, "UVM based Verification of Read and Write Transactions in AXI4-Lite Protocol," 2022 IEEE Region 10 Symposium (TENSYMP), Mumbai, India, 2022, pp. 1-5, doi: 10.1109/TENSYMP54529.2022.9864552. keywords: {Performance evaluation;Protocols;Codes;Simulation;Intellectual property;Shift registers;System-on-chip;AXI;UVM;Verification;VCS;System-on-chip(SoC)},
_

<img width="823" height="1008" alt="image" src="https://github.com/user-attachments/assets/1791094d-31ec-4f89-8c96-420ba7b8fd2a" />
